Circuit: * C:\Users\Ahmad Aziz\Data\Kuliah\Prak Elka 2\Rangkaian LTSpice\Percobaan 1 Penguat Diferensial\Perc-01-01-operatingpoint.asc

Direct Newton iteration for .op point succeeded.
Semiconductor Device Operating Points:
                        --- Bipolar Transistors ---
Name:       q2          q1
Model:    2n3904      2n3904
Ib:       2.65e-06    2.65e-06
Ic:       8.32e-04    8.32e-04
Vbe:      6.49e-01    6.49e-01
Vbc:     -4.84e+00   -4.84e+00
Vce:      5.49e+00    5.49e+00
BetaDC:   3.14e+02    3.14e+02
Gm:       3.21e-02    3.21e-02
Rpi:      9.75e+03    9.75e+03
Rx:       2.00e+01    2.00e+01
Ro:       1.26e+05    1.26e+05
Cbe:      2.37e-11    2.37e-11
Cbc:      2.06e-12    2.06e-12
Cjs:      0.00e+00    0.00e+00
BetaAC:   3.13e+02    3.13e+02
Cbx:      0.00e+00    0.00e+00
Ft:       1.98e+08    1.98e+08



Date: Mon Sep 12 23:07:08 2022
Total elapsed time: 0.038 seconds.

tnom = 27
temp = 27
method = trap
totiter = 7
traniter = 0
tranpoints = 0
accept = 0
rejected = 0
matrix size = 19
fillins = 0
solver = Normal
Matrix Compiler1: 848 bytes object code size
Matrix Compiler2: 1.40 KB object code size
