time	V(vid)	V(vodn)	V(vodp)
0.000000000000000e+000	0.000000e+000	4.837930e+000	4.837930e+000
3.571428613164635e-009	3.365992e-006	4.837887e+000	4.837969e+000
7.142857226329270e-009	6.731984e-006	4.837815e+000	4.838039e+000
1.071428583949391e-008	1.009798e-005	4.837714e+000	4.838139e+000
1.428571445265854e-008	1.346397e-005	4.837583e+000	4.838270e+000
1.785714306582317e-008	1.682996e-005	4.837423e+000	4.838431e+000
2.142857167898781e-008	2.019595e-005	4.837234e+000	4.838622e+000
2.500000029215244e-008	2.356194e-005	4.837015e+000	4.838844e+000
5.000000058430487e-008	4.712389e-005	4.835426e+000	4.840433e+000
1.000000011686097e-007	9.424777e-005	4.831900e+000	4.843961e+000
3.790178583114671e-006	3.576158e-003	4.561671e+000	5.114140e+000
7.480357165060731e-006	7.051593e-003	4.298354e+000	5.377319e+000
1.117053574700679e-005	1.052055e-002	4.041948e+000	5.633496e+000
1.486071432895285e-005	1.398304e-002	3.792452e+000	5.882672e+000
1.855089291089891e-005	1.743905e-002	3.549868e+000	6.124848e+000
2.224107149284498e-005	2.088858e-002	3.314195e+000	6.360022e+000
2.593125007479103e-005	2.433164e-002	3.085432e+000	6.588196e+000
3.081406257479103e-005	2.886047e-002	2.806959e+000	6.865764e+000
3.569687507479102e-005	3.336214e-002	2.550876e+000	7.120806e+000
4.057968757479102e-005	3.783241e-002	2.317893e+000	7.352624e+000
4.546250007479102e-005	4.226708e-002	2.107975e+000	7.561265e+000
5.034531257479102e-005	4.666196e-002	1.920475e+000	7.747389e+000
5.522812507479101e-005	5.101293e-002	1.754272e+000	7.912133e+000
6.011093757479101e-005	5.531588e-002	1.607915e+000	8.056958e+000
6.499375007479101e-005	5.956678e-002	1.479753e+000	8.183531e+000
6.987656257479101e-005	6.376161e-002	1.368042e+000	8.293605e+000
7.475937507479102e-005	6.789643e-002	1.271034e+000	8.388943e+000
7.964218757479102e-005	7.196735e-002	1.187037e+000	8.471247e+000
8.452500007479103e-005	7.597054e-002	1.114461e+000	8.542114e+000
8.940781257479103e-005	7.990222e-002	1.051843e+000	8.603020e+000
9.429062507479103e-005	8.375871e-002	9.978608e-001	8.655291e+000
9.917343757479104e-005	8.753636e-002	9.513354e-001	8.700114e+000
1.040562500747910e-004	9.123163e-002	9.112273e-001	8.738536e+000
1.089390625747911e-004	9.484103e-002	8.766283e-001	8.771471e+000
1.138218750747911e-004	9.836118e-002	8.467505e-001	8.799709e+000
1.187046875747911e-004	1.017887e-001	8.209145e-001	8.823937e+000
1.235875000747911e-004	1.051205e-001	7.985373e-001	8.844741e+000
1.284703125747911e-004	1.083533e-001	7.791202e-001	8.862622e+000
1.333531250747911e-004	1.114842e-001	7.622380e-001	8.878010e+000
1.382359375747911e-004	1.145101e-001	7.475288e-001	8.891268e+000
1.431187500747911e-004	1.174283e-001	7.346853e-001	8.902708e+000
1.480015625747911e-004	1.202359e-001	7.234467e-001	8.912592e+000
1.528843750747911e-004	1.229304e-001	7.135918e-001	8.921143e+000
1.577671875747911e-004	1.255092e-001	7.049333e-001	8.928551e+000
1.626500000747911e-004	1.279698e-001	6.973125e-001	8.934976e+000
1.675328125747911e-004	1.303100e-001	6.905947e-001	8.940555e+000
1.724156250747911e-004	1.325276e-001	6.846660e-001	8.945402e+000
1.772984375747911e-004	1.346205e-001	6.794298e-001	8.949616e+000
1.821812500747911e-004	1.365866e-001	6.748043e-001	8.953281e+000
1.870640625747911e-004	1.384242e-001	6.707201e-001	8.956467e+000
1.919468750747911e-004	1.401315e-001	6.671185e-001	8.959233e+000
1.968296875747911e-004	1.417069e-001	6.639498e-001	8.961630e+000
2.017125000747911e-004	1.431490e-001	6.611722e-001	8.963701e+000
2.065953125747911e-004	1.444563e-001	6.587498e-001	8.965483e+000
2.114781250747911e-004	1.456276e-001	6.566532e-001	8.967005e+000
2.163609375747911e-004	1.466620e-001	6.548575e-001	8.968294e+000
2.212437500747911e-004	1.475582e-001	6.533419e-001	8.969370e+000
2.261265625747911e-004	1.483156e-001	6.520895e-001	8.970251e+000
2.310093750747911e-004	1.489334e-001	6.510866e-001	8.970951e+000
2.358921875747912e-004	1.494111e-001	6.503226e-001	8.971480e+000
2.407750000747912e-004	1.497481e-001	6.497895e-001	8.971849e+000
2.456578125747911e-004	1.499442e-001	6.494818e-001	8.972061e+000
2.505406250747911e-004	1.499991e-001	6.493962e-001	8.972121e+000
2.554234375747911e-004	1.499129e-001	6.495320e-001	8.972029e+000
2.603062500747911e-004	1.496856e-001	6.498904e-001	8.971783e+000
2.651890625747911e-004	1.493174e-001	6.504752e-001	8.971380e+000
2.700718750747912e-004	1.488087e-001	6.512924e-001	8.970814e+000
2.749546875747912e-004	1.481599e-001	6.523504e-001	8.970076e+000
2.798375000747912e-004	1.473717e-001	6.536608e-001	8.969154e+000
2.847203125747912e-004	1.464448e-001	6.552376e-001	8.968034e+000
2.896031250747912e-004	1.453800e-001	6.570987e-001	8.966696e+000
2.944859375747912e-004	1.441785e-001	6.592655e-001	8.965120e+000
2.993687500747912e-004	1.428412e-001	6.617640e-001	8.963279e+000
3.042515625747912e-004	1.413695e-001	6.646250e-001	8.961140e+000
3.091343750747912e-004	1.397647e-001	6.678853e-001	8.958667e+000
3.140171875747912e-004	1.380284e-001	6.715885e-001	8.955814e+000
3.189000000747912e-004	1.361622e-001	6.757860e-001	8.952530e+000
3.237828125747912e-004	1.341679e-001	6.805388e-001	8.948752e+000
3.286656250747912e-004	1.320472e-001	6.859186e-001	8.944407e+000
3.335484375747912e-004	1.298023e-001	6.920103e-001	8.939410e+000
3.384312500747912e-004	1.274353e-001	6.989139e-001	8.933659e+000
3.433140625747912e-004	1.249482e-001	7.067477e-001	8.927032e+000
3.481968750747912e-004	1.223436e-001	7.156507e-001	8.919390e+000
3.530796875747912e-004	1.196239e-001	7.257878e-001	8.910566e+000
3.579625000747912e-004	1.167915e-001	7.373528e-001	8.900365e+000
3.628453125747912e-004	1.138493e-001	7.505752e-001	8.888554e+000
3.677281250747912e-004	1.107998e-001	7.657249e-001	8.874861e+000
3.726109375747912e-004	1.076462e-001	7.831203e-001	8.858965e+000
3.774937500747912e-004	1.043912e-001	8.031360e-001	8.840487e+000
3.823765625747913e-004	1.010379e-001	8.262122e-001	8.818986e+000
3.872593750747913e-004	9.758954e-002	8.528645e-001	8.793940e+000
3.921421875747913e-004	9.404935e-002	8.836958e-001	8.764744e+000
3.970250000747913e-004	9.042063e-002	9.194075e-001	8.730690e+000
4.019078125747913e-004	8.670682e-002	9.608124e-001	8.690961e+000
4.067906250747913e-004	8.291140e-002	1.008846e+000	8.644617e+000
4.116734375747913e-004	7.903795e-002	1.064577e+000	8.590581e+000
4.165562500747913e-004	7.509010e-002	1.129215e+000	8.527637e+000
4.214390625747913e-004	7.107159e-002	1.204112e+000	8.454424e+000
4.263218750747913e-004	6.698619e-002	1.290761e+000	8.369442e+000
4.312046875747913e-004	6.283774e-002	1.390776e+000	8.271070e+000
4.360875000747913e-004	5.863015e-002	1.505864e+000	8.157586e+000
4.409703125747913e-004	5.436738e-002	1.637779e+000	8.027227e+000
4.458531250747913e-004	5.005344e-002	1.788253e+000	7.878251e+000
4.507359375747913e-004	4.569240e-002	1.958903e+000	7.709028e+000
4.556187500747913e-004	4.128835e-002	2.151121e+000	7.518154e+000
4.605015625747913e-004	3.684544e-002	2.365939e+000	7.304585e+000
4.653843750747913e-004	3.236785e-002	2.603885e+000	7.067781e+000
4.702671875747913e-004	2.785980e-002	2.864845e+000	6.807845e+000
4.751500000747913e-004	2.332553e-002	3.147938e+000	6.525646e+000
4.800328125747913e-004	1.876930e-002	3.451431e+000	6.222907e+000
4.897984375747913e-004	9.608163e-003	4.108321e+000	5.567077e+000
4.939837054319343e-004	5.662059e-003	4.411962e+000	5.263696e+000
4.981689732890771e-004	1.718850e-003	4.712319e+000	4.963477e+000
5.023542411462200e-004	-2.221464e-003	5.009393e+000	4.666418e+000
5.065395090033628e-004	-6.158881e-003	5.303183e+000	4.372521e+000
5.107247768605057e-004	-1.009340e-002	5.593689e+000	4.081785e+000
5.149100447176486e-004	-1.402503e-002	5.880911e+000	3.794211e+000
5.190953125747914e-004	-1.795376e-002	6.164849e+000	3.509798e+000
5.239781250747914e-004	-2.251345e-002	6.471175e+000	3.202774e+000
5.288609375747914e-004	-2.705196e-002	6.757374e+000	2.915728e+000
5.337437500747914e-004	-3.156501e-002	7.021555e+000	2.650559e+000
5.386265625747914e-004	-3.604834e-002	7.262696e+000	2.408301e+000
5.435093750747914e-004	-4.049775e-002	7.480559e+000	2.189204e+000
5.483921875747914e-004	-4.490905e-002	7.675578e+000	1.992848e+000
5.532750000747914e-004	-4.927807e-002	7.848713e+000	1.818285e+000
5.581578125747914e-004	-5.360072e-002	8.001314e+000	1.664178e+000
5.630406250747914e-004	-5.787292e-002	8.134980e+000	1.528945e+000
5.679234375747914e-004	-6.209066e-002	8.251442e+000	1.410865e+000
5.728062500747914e-004	-6.624995e-002	8.352466e+000	1.308183e+000
5.776890625747914e-004	-7.034690e-002	8.439784e+000	1.219179e+000
5.825718750747914e-004	-7.437763e-002	8.515042e+000	1.142218e+000
5.874546875747914e-004	-7.833837e-002	8.579764e+000	1.075783e+000
5.923375000747914e-004	-8.222537e-002	8.635339e+000	1.018496e+000
5.972203125747914e-004	-8.603499e-002	8.683008e+000	9.691204e-001
6.021031250747914e-004	-8.976363e-002	8.723874e+000	9.265615e-001
6.069859375747915e-004	-9.340779e-002	8.758902e+000	8.898598e-001
6.118687500747915e-004	-9.696405e-002	8.788931e+000	8.581808e-001
6.167515625747915e-004	-1.004290e-001	8.814688e+000	8.308032e-001
6.216343750747915e-004	-1.037995e-001	8.836797e+000	8.071068e-001
6.265171875747915e-004	-1.070723e-001	8.855791e+000	7.865605e-001
6.314000000747915e-004	-1.102443e-001	8.872129e+000	7.687111e-001
6.362828125747915e-004	-1.133125e-001	8.886200e+000	7.531725e-001
6.411656250747915e-004	-1.162741e-001	8.898333e+000	7.396165e-001
6.460484375747915e-004	-1.191263e-001	8.908810e+000	7.277645e-001
6.509312500747915e-004	-1.218664e-001	8.917870e+000	7.173804e-001
6.558140625747915e-004	-1.244917e-001	8.925714e+000	7.082639e-001
6.606968750747915e-004	-1.269999e-001	8.932514e+000	7.002454e-001
6.655796875747915e-004	-1.293886e-001	8.938416e+000	6.931812e-001
6.704625000747915e-004	-1.316554e-001	8.943544e+000	6.869493e-001
6.753453125747915e-004	-1.337984e-001	8.948001e+000	6.814467e-001
6.802281250747915e-004	-1.358155e-001	8.951877e+000	6.765859e-001
6.851109375747915e-004	-1.377047e-001	8.955246e+000	6.722928e-001
6.899937500747915e-004	-1.394643e-001	8.958174e+000	6.685046e-001
6.948765625747915e-004	-1.410927e-001	8.960712e+000	6.651682e-001
6.997593750747915e-004	-1.425882e-001	8.962910e+000	6.622387e-001
7.046421875747915e-004	-1.439496e-001	8.964803e+000	6.596781e-001
7.095250000747915e-004	-1.451755e-001	8.966425e+000	6.574545e-001
7.144078125747915e-004	-1.462647e-001	8.967805e+000	6.555411e-001
7.192906250747916e-004	-1.472163e-001	8.968964e+000	6.539156e-001
7.241734375747916e-004	-1.480294e-001	8.969921e+000	6.525598e-001
7.290562500747916e-004	-1.487031e-001	8.970692e+000	6.514585e-001
7.339390625747916e-004	-1.492369e-001	8.971289e+000	6.506001e-001
7.388218750747916e-004	-1.496302e-001	8.971722e+000	6.499755e-001
7.437046875747916e-004	-1.498827e-001	8.971995e+000	6.495781e-001
7.485875000747916e-004	-1.499941e-001	8.972116e+000	6.494039e-001
7.534703125747916e-004	-1.499643e-001	8.972084e+000	6.494511e-001
7.583531250747916e-004	-1.497934e-001	8.971900e+000	6.497202e-001
7.632359375747916e-004	-1.494816e-001	8.971560e+000	6.502138e-001
7.681187500747916e-004	-1.490290e-001	8.971061e+000	6.509371e-001
7.730015625747916e-004	-1.484362e-001	8.970392e+000	6.518977e-001
7.778843750747916e-004	-1.477037e-001	8.969545e+000	6.531055e-001
7.827671875747916e-004	-1.468322e-001	8.968507e+000	6.545738e-001
7.876500000747916e-004	-1.458224e-001	8.967258e+000	6.563188e-001
7.925328125747916e-004	-1.446754e-001	8.965781e+000	6.583605e-001
7.974156250747916e-004	-1.433923e-001	8.964049e+000	6.607230e-001
8.022984375747916e-004	-1.419742e-001	8.962033e+000	6.634349e-001
8.071812500747916e-004	-1.404225e-001	8.959700e+000	6.665306e-001
8.120640625747916e-004	-1.387386e-001	8.957005e+000	6.700510e-001
8.169468750747916e-004	-1.369242e-001	8.953899e+000	6.740440e-001
8.218296875747916e-004	-1.349809e-001	8.950327e+000	6.785667e-001
8.267125000747916e-004	-1.329105e-001	8.946218e+000	6.836863e-001
8.315953125747917e-004	-1.307151e-001	8.941494e+000	6.894822e-001
8.364781250747917e-004	-1.283966e-001	8.936056e+000	6.960480e-001
8.413609375747917e-004	-1.259573e-001	8.929795e+000	7.034942e-001
8.462437500747917e-004	-1.233994e-001	8.922579e+000	7.119513e-001
8.511265625747917e-004	-1.207254e-001	8.914249e+000	7.215732e-001
8.560093750747917e-004	-1.179378e-001	8.904625e+000	7.325416e-001
8.608921875747917e-004	-1.150392e-001	8.893488e+000	7.450711e-001
8.657750000747917e-004	-1.120323e-001	8.880584e+000	7.594146e-001
8.706578125747917e-004	-1.089200e-001	8.865610e+000	7.758700e-001
8.755406250747917e-004	-1.057051e-001	8.848215e+000	7.947887e-001
8.804234375747917e-004	-1.023908e-001	8.827980e+000	8.165833e-001
8.853062500747917e-004	-9.898009e-002	8.804420e+000	8.417379e-001
8.901890625747917e-004	-9.547623e-002	8.776962e+000	8.708192e-001
8.950718750747917e-004	-9.188252e-002	8.744944e+000	9.044878e-001
8.999546875747917e-004	-8.820233e-002	8.707591e+000	9.435103e-001
9.048375000747917e-004	-8.443913e-002	8.664014e+000	9.887718e-001
9.097203125747917e-004	-8.059646e-002	8.613193e+000	1.041287e+000
9.146031250747917e-004	-7.667793e-002	8.553967e+000	1.102207e+000
9.194859375747917e-004	-7.268724e-002	8.485034e+000	1.172830e+000
9.243687500747917e-004	-6.862813e-002	8.404949e+000	1.254591e+000
9.292515625747917e-004	-6.450444e-002	8.312134e+000	1.349058e+000
9.341343750747917e-004	-6.032003e-002	8.204905e+000	1.457908e+000
9.390171875747917e-004	-5.607886e-002	8.081509e+000	1.582881e+000
9.439000000747918e-004	-5.178490e-002	7.940184e+000	1.725729e+000
9.487828125747918e-004	-4.744221e-002	7.779243e+000	1.888126e+000
9.536656250747918e-004	-4.305486e-002	7.597178e+000	2.071570e+000
9.585484375747918e-004	-3.862700e-002	7.392783e+000	2.277253e+000
9.634312500747918e-004	-3.416278e-002	7.165300e+000	2.505922e+000
9.683140625747918e-004	-2.966641e-002	6.914557e+000	2.757737e+000
9.731968750747918e-004	-2.514211e-002	6.641106e+000	3.032136e+000
9.780796875747918e-004	-2.059415e-002	6.346320e+000	3.327734e+000
9.829625000747917e-004	-1.602681e-002	6.032453e+000	3.642268e+000
9.927281250747915e-004	-6.851196e-003	5.360743e+000	4.314849e+000
1.007376562574791e-003	6.949758e-003	4.309834e+000	5.365833e+000
1.017142187574791e-003	1.612491e-002	3.637608e+000	6.037274e+000
1.022025000074791e-003	2.069188e-002	3.323322e+000	6.350925e+000
1.026907812574791e-003	2.523937e-002	3.028008e+000	6.645451e+000
1.031790625074791e-003	2.976312e-002	2.753917e+000	6.918609e+000
1.036673437574791e-003	3.425884e-002	2.502423e+000	7.169036e+000
1.041556250074790e-003	3.872233e-002	2.274077e+000	7.396194e+000
1.046439062574790e-003	4.314937e-002	2.068712e+000	7.600261e+000
1.051321875074790e-003	4.753580e-002	1.885573e+000	7.782006e+000
1.056204687574790e-003	5.187749e-002	1.723463e+000	7.942640e+000
1.061087500074790e-003	5.617036e-002	1.580882e+000	8.083677e+000
1.065970312574790e-003	6.041035e-002	1.456151e+000	8.206808e+000
1.070853125074790e-003	6.459350e-002	1.347520e+000	8.313796e+000
1.075735937574790e-003	6.871585e-002	1.253246e+000	8.406393e+000
1.080618750074790e-003	7.277353e-002	1.171657e+000	8.486286e+000
1.085501562574790e-003	7.676271e-002	1.101185e+000	8.555048e+000
1.090384375074789e-003	8.067966e-002	1.040395e+000	8.614124e+000
1.095267187574789e-003	8.452066e-002	9.879944e-001	8.664816e+000
1.100150000074789e-003	8.828212e-002	9.428313e-001	8.708280e+000
1.105032812574789e-003	9.196049e-002	9.038937e-001	8.745535e+000
1.109915625074789e-003	9.555231e-002	8.702983e-001	8.777471e+000
1.114798437574789e-003	9.905420e-002	8.412799e-001	8.804855e+000
1.119681250074789e-003	1.024629e-001	8.161795e-001	8.828355e+000
1.124564062574789e-003	1.057751e-001	7.944317e-001	8.848536e+000
1.129446875074789e-003	1.089878e-001	7.755534e-001	8.865887e+000
1.134329687574788e-003	1.120979e-001	7.591329e-001	8.880821e+000
1.139212500074788e-003	1.151025e-001	7.448198e-001	8.893693e+000
1.144095312574788e-003	1.179987e-001	7.323168e-001	8.904801e+000
1.148978125074788e-003	1.207840e-001	7.213715e-001	8.914402e+000
1.153860937574788e-003	1.234555e-001	7.117699e-001	8.922710e+000
1.158743750074788e-003	1.260108e-001	7.033308e-001	8.929910e+000
1.163626562574788e-003	1.284476e-001	6.959006e-001	8.936155e+000
1.168509375074788e-003	1.307634e-001	6.893491e-001	8.941579e+000
1.173392187574788e-003	1.329562e-001	6.835662e-001	8.946293e+000
1.178275000074788e-003	1.350239e-001	6.784582e-001	8.950392e+000
1.183157812574787e-003	1.369645e-001	6.739461e-001	8.953955e+000
1.188040625074787e-003	1.387761e-001	6.699629e-001	8.957052e+000
1.192923437574787e-003	1.404572e-001	6.664516e-001	8.959741e+000
1.197806250074787e-003	1.420060e-001	6.633643e-001	8.962070e+000
1.202689062574787e-003	1.434212e-001	6.606603e-001	8.964080e+000
1.207571875074787e-003	1.447015e-001	6.583053e-001	8.965807e+000
1.212454687574787e-003	1.458455e-001	6.562707e-001	8.967280e+000
1.217337500074787e-003	1.468523e-001	6.545326e-001	8.968525e+000
1.222220312574787e-003	1.477208e-001	6.530708e-001	8.969562e+000
1.227103125074787e-003	1.484504e-001	6.518693e-001	8.970406e+000
1.231985937574786e-003	1.490402e-001	6.509150e-001	8.971070e+000
1.236868750074786e-003	1.494897e-001	6.501977e-001	8.971567e+000
1.241751562574786e-003	1.497986e-001	6.497101e-001	8.971904e+000
1.246634375074786e-003	1.499665e-001	6.494470e-001	8.972086e+000
1.251517187574786e-003	1.499932e-001	6.494057e-001	8.972115e+000
1.256400000074786e-003	1.498787e-001	6.495858e-001	8.971992e+000
1.261282812574786e-003	1.496232e-001	6.499891e-001	8.971715e+000
1.266165625074786e-003	1.492269e-001	6.506199e-001	8.971280e+000
1.271048437574786e-003	1.486901e-001	6.514844e-001	8.970680e+000
1.275931250074785e-003	1.480134e-001	6.525919e-001	8.969907e+000
1.280814062574785e-003	1.471974e-001	6.539543e-001	8.968946e+000
1.285696875074785e-003	1.462428e-001	6.555865e-001	8.967785e+000
1.290579687574785e-003	1.451506e-001	6.575068e-001	8.966401e+000
1.295462500074785e-003	1.439218e-001	6.597378e-001	8.964774e+000
1.300345312574785e-003	1.425576e-001	6.623061e-001	8.962876e+000
1.305228125074785e-003	1.410591e-001	6.652438e-001	8.960674e+000
1.310110937574785e-003	1.394279e-001	6.685890e-001	8.958128e+000
1.314993750074785e-003	1.376655e-001	6.723866e-001	8.955194e+000
1.319876562574785e-003	1.357736e-001	6.766900e-001	8.951817e+000
1.324759375074784e-003	1.337538e-001	6.815621e-001	8.947931e+000
1.329642187574784e-003	1.316081e-001	6.870770e-001	8.943463e+000
1.334525000074784e-003	1.293386e-001	6.933226e-001	8.938324e+000
1.339407812574784e-003	1.269474e-001	7.004021e-001	8.932407e+000
1.344290625074784e-003	1.244366e-001	7.084378e-001	8.925590e+000
1.349173437574784e-003	1.218088e-001	7.175736e-001	8.917727e+000
1.354056250074784e-003	1.190663e-001	7.279797e-001	8.908644e+000
1.358939062574784e-003	1.162118e-001	7.398567e-001	8.898140e+000
1.363821875074784e-003	1.132479e-001	7.534415e-001	8.885976e+000
1.368704687574784e-003	1.101774e-001	7.690132e-001	8.871869e+000
1.373587500074783e-003	1.070032e-001	7.869008e-001	8.855489e+000
1.378470312574783e-003	1.037283e-001	8.074911e-001	8.836445e+000
1.383353125074783e-003	1.003557e-001	8.312386e-001	8.814279e+000
1.388235937574783e-003	9.688874e-002	8.586755e-001	8.788454e+000
1.393118750074783e-003	9.333058e-002	8.904234e-001	8.758346e+000
1.398001562574783e-003	8.968457e-002	9.272050e-001	8.723227e+000
1.402884375074783e-003	8.595415e-002	9.698566e-001	8.682254e+000
1.407767187574783e-003	8.214284e-002	1.019340e+000	8.634461e+000
1.412650000074783e-003	7.825421e-002	1.076751e+000	8.578746e+000
1.417532812574782e-003	7.429194e-002	1.143328e+000	8.513862e+000
1.422415625074782e-003	7.025974e-002	1.220452e+000	8.438419e+000
1.427298437574782e-003	6.616142e-002	1.309641e+000	8.350893e+000
1.432181250074782e-003	6.200083e-002	1.412532e+000	8.249638e+000
1.437064062574782e-003	5.778189e-002	1.530844e+000	8.132921e+000
1.441946875074782e-003	5.350856e-002	1.666335e+000	7.998976e+000
1.446829687574782e-003	4.918487e-002	1.820720e+000	7.846075e+000
1.451712500074782e-003	4.481490e-002	1.995582e+000	7.672625e+000
